time	V(highside)	V(highside)-V(out)	V(lowside)	V(out)
0.000000000000000e+00	1.439101e-08	5.359446e-11	5.456120e-11	1.433741e-08
9.999999960041972e-12	1.439121e-08	5.354739e-11	5.461585e-11	1.433767e-08
1.004000010999124e-11	1.439129e-08	5.353495e-11	5.463350e-11	1.433775e-08
1.012000040988979e-11	1.439092e-08	5.365486e-11	5.452564e-11	1.433727e-08
1.014000048486443e-11	1.439335e-08	5.298784e-11	5.520294e-11	1.434036e-08
1.014500050360809e-11	1.439477e-08	5.261569e-11	5.559455e-11	1.434216e-08
1.015500054109541e-11	1.439508e-08	5.259260e-11	5.566182e-11	1.434249e-08
1.017500061607004e-11	1.439191e-08	5.350564e-11	5.476393e-11	1.433840e-08
1.021500076601932e-11	1.439060e-08	5.382983e-11	5.440779e-11	1.433677e-08
1.022500080350663e-11	1.439072e-08	5.378809e-11	5.444241e-11	1.433693e-08
1.024500087848127e-11	1.439280e-08	5.319567e-11	5.502985e-11	1.433961e-08
1.025000089722493e-11	1.440515e-08	4.974954e-11	5.848925e-11	1.435540e-08
1.025125090191085e-11	1.441258e-08	4.770584e-11	6.056271e-11	1.436487e-08
1.025375091128267e-11	1.441873e-08	4.609380e-11	6.225756e-11	1.437264e-08
1.025875093002633e-11	1.440933e-08	4.886846e-11	5.957761e-11	1.436046e-08
1.026875096751365e-11	1.439943e-08	5.176837e-11	5.675907e-11	1.434766e-08
1.028875104248829e-11	1.439389e-08	5.337242e-11	5.518574e-11	1.434051e-08
1.032875119243756e-11	1.439145e-08	5.399148e-11	5.451531e-11	1.433746e-08
1.040875149233611e-11	1.439195e-08	5.375522e-11	5.467524e-11	1.433819e-08
1.056875209213320e-11	1.439242e-08	5.357847e-11	5.480807e-11	1.433884e-08
1.060875224208248e-11	1.440685e-08	4.959055e-11	5.884036e-11	1.435726e-08
1.061000224676839e-11	1.441213e-08	4.815526e-11	6.030954e-11	1.436397e-08
1.061250225614022e-11	1.441672e-08	4.697398e-11	6.156759e-11	1.436975e-08
1.061312725848318e-11	1.434037e-08	6.813305e-11	4.018982e-11	1.427224e-08
1.061328350906892e-11	1.471379e-08	-3.695622e-11	1.450909e-10	1.475075e-08
1.061332257171535e-11	1.347141e-08	2.935980e-10	-1.997376e-10	1.317781e-08
1.061332379242305e-11	1.277817e-08	4.836140e-10	-3.933680e-10	1.229456e-08
1.061332623383845e-11	1.048407e-08	1.133456e-09	-1.038750e-09	9.350618e-09
1.061332723383845e-11	9.603386e-09	1.381643e-09	-1.286227e-09	8.221742e-09
1.061332923383845e-11	4.089792e-09	2.918375e-09	-2.831828e-09	1.171417e-09
1.061333323383845e-11	-2.472391e-08	1.104113e-08	-1.092919e-08	-3.576504e-08
1.061333423383845e-11	-3.330494e-08	1.344910e-08	-1.333824e-08	-4.675404e-08
1.061333623383845e-11	-3.697819e-08	1.445673e-08	-1.436439e-08	-5.143492e-08
1.061334023383845e-11	-2.112143e-08	1.001119e-08	-9.913616e-09	-3.113262e-08
1.061334823383845e-11	1.820965e-09	3.589017e-09	-3.476172e-09	-1.768052e-09
1.061336423383845e-11	1.404829e-08	1.441620e-10	-4.044102e-11	1.390413e-08
1.061339623383845e-11	1.477779e-08	-6.151346e-11	1.645702e-10	1.483930e-08
1.061346023383845e-11	1.386340e-08	1.993676e-10	-9.307379e-11	1.366404e-08
1.061358823383845e-11	1.404867e-08	1.495977e-10	-4.154365e-11	1.389907e-08
1.061384423383846e-11	1.428570e-08	8.327294e-11	2.496459e-11	1.420243e-08
1.061435623383845e-11	1.427791e-08	8.503953e-11	2.287916e-11	1.419287e-08
1.061448423383845e-11	1.430036e-08	7.878498e-11	2.917188e-11	1.422157e-08
1.061474023383846e-11	1.427138e-08	8.686918e-11	2.105138e-11	1.418451e-08
1.061525223383846e-11	1.422017e-08	1.007736e-10	6.783855e-12	1.411939e-08
1.061627623383846e-11	1.429065e-08	8.067413e-11	2.665443e-11	1.420997e-08
1.061832423383845e-11	1.435321e-08	6.314060e-11	4.422560e-11	1.429007e-08
1.061883623383845e-11	1.433682e-08	6.773959e-11	3.962871e-11	1.426908e-08
1.061986023383845e-11	1.428737e-08	8.146728e-11	2.578762e-11	1.420590e-08
1.062011623383846e-11	1.519892e-08	-1.783711e-10	2.825869e-10	1.537729e-08
1.062012423383845e-11	1.994515e-09	3.529027e-09	-3.424889e-09	-1.534512e-09
1.062012623383845e-11	-1.208995e-08	7.483804e-09	-7.379526e-09	-1.957375e-08
1.062012723383846e-11	-1.703197e-08	8.880860e-09	-8.769201e-09	-2.591283e-08
1.062012923383845e-11	-1.614258e-08	8.650792e-09	-8.523783e-09	-2.479337e-08
1.062013023383846e-11	-1.614663e-08	8.651174e-09	-8.524751e-09	-2.479780e-08
1.062013223383845e-11	-1.453756e-08	8.200131e-09	-8.073117e-09	-2.273769e-08
1.062013623383846e-11	-6.843915e-09	6.035462e-09	-5.911925e-09	-1.287938e-08
1.062014423383846e-11	-2.840735e-09	4.894258e-09	-4.784135e-09	-7.734993e-09
1.062014623383845e-11	-6.932948e-09	6.046615e-09	-5.933867e-09	-1.297956e-08
1.062015023383846e-11	-7.743058e-09	6.275919e-09	-6.161721e-09	-1.401898e-08
1.062015823383846e-11	2.062559e-09	3.499460e-09	-3.403409e-09	-1.436901e-09
1.062016023383845e-11	-8.100534e-10	4.294376e-09	-4.207417e-09	-5.104430e-09
1.062016423383846e-11	-2.025668e-08	9.782058e-09	-9.673613e-09	-3.003873e-08
1.062016523383846e-11	-2.609909e-08	1.145101e-08	-1.132028e-08	-3.755010e-08
1.062016623383846e-11	-2.851410e-08	1.214717e-08	-1.200233e-08	-4.066127e-08
1.000000000000000e-09	1.441147e-08	5.572076e-11	5.945758e-11	1.435575e-08
1.353728115935726e-09	1.441038e-08	5.374012e-11	5.759193e-11	1.435664e-08
1.378957649104274e-09	1.441009e-08	5.370016e-11	5.743401e-11	1.435639e-08
1.378964225254141e-09	1.441002e-08	5.371525e-11	5.741571e-11	1.435631e-08
1.378977377553875e-09	1.439403e-08	5.825118e-11	5.291579e-11	1.433577e-08
1.378977788563242e-09	1.438003e-08	6.217782e-11	4.898850e-11	1.431785e-08
1.378978610581975e-09	1.435734e-08	6.848744e-11	4.263487e-11	1.428885e-08
1.378980254619442e-09	1.438512e-08	6.048761e-11	5.048745e-11	1.432463e-08
1.378980665628809e-09	1.438555e-08	6.033041e-11	5.061791e-11	1.432522e-08
1.378981487647542e-09	1.438116e-08	6.152234e-11	4.939718e-11	1.431964e-08
1.378983131685009e-09	1.439780e-08	5.681855e-11	5.407928e-11	1.434098e-08
1.378986419759942e-09	1.441372e-08	5.234302e-11	5.855007e-11	1.436138e-08
1.378987241778676e-09	1.441009e-08	5.335288e-11	5.753366e-11	1.435674e-08
1.378988885816142e-09	1.478637e-08	-5.191492e-11	1.630990e-10	1.483829e-08
1.378988937192313e-09	1.472194e-08	-3.537171e-11	1.453452e-10	1.475731e-08
1.378988950036356e-09	1.453925e-08	1.491074e-11	9.427262e-11	1.452434e-08
1.378988975724441e-09	1.406459e-08	1.476268e-10	-3.887729e-11	1.391697e-08
1.378989027100612e-09	1.380463e-08	2.223697e-10	-1.122511e-10	1.358226e-08
1.378989129852954e-09	1.402047e-08	1.624469e-10	-5.179159e-11	1.385802e-08
1.378989335357637e-09	1.431209e-08	8.046985e-11	3.011357e-11	1.423162e-08
1.378989386733808e-09	1.434903e-08	7.020606e-11	4.046175e-11	1.427882e-08
1.378989489486150e-09	1.438618e-08	6.013767e-11	5.081306e-11	1.432604e-08
1.378989694990833e-09	1.428955e-08	8.743317e-11	2.364889e-11	1.420212e-08
1.378990106000200e-09	1.426422e-08	9.407053e-11	1.664702e-11	1.417015e-08
1.378990928018933e-09	1.426770e-08	9.274981e-11	1.771003e-11	1.417495e-08
1.378991133523616e-09	1.423473e-08	1.019789e-10	8.463495e-12	1.413275e-08
1.378991544532983e-09	1.421137e-08	1.084981e-10	1.924102e-12	1.410288e-08
1.378992366551716e-09	1.429366e-08	8.530243e-11	2.506003e-11	1.420836e-08
1.378994010589183e-09	1.436500e-08	6.518519e-11	4.512279e-11	1.429982e-08
1.378994421598550e-09	1.435264e-08	6.869261e-11	4.164707e-11	1.428395e-08
1.378995243617283e-09	1.434024e-08	7.215650e-11	3.817510e-11	1.426808e-08
1.378996887654750e-09	1.438488e-08	5.937117e-11	5.077293e-11	1.432551e-08
1.378998326921191e-09	1.442154e-08	4.897505e-11	6.108943e-11	1.437257e-08
1.378999791933772e-09	1.442597e-08	4.773604e-11	6.232870e-11	1.437824e-08
1.378999973091082e-09	1.440574e-08	5.345058e-11	5.664039e-11	1.435229e-08
1.379000335405700e-09	1.437014e-08	6.368150e-11	4.659443e-11	1.430646e-08
1.379000425984354e-09	1.437092e-08	6.359180e-11	4.678521e-11	1.430732e-08
1.379000607141664e-09	1.437147e-08	6.356426e-11	4.691405e-11	1.430791e-08
1.379000969456282e-09	1.437824e-08	6.146550e-11	4.885868e-11	1.431677e-08
1.379001694085518e-09	1.439350e-08	5.694734e-11	5.319726e-11	1.433656e-08
1.379001875242828e-09	1.438541e-08	5.924505e-11	5.091914e-11	1.432616e-08
1.379002237557446e-09	1.436930e-08	6.380052e-11	4.639199e-11	1.430550e-08
1.379002962186682e-09	1.440788e-08	5.279777e-11	5.726362e-11	1.435508e-08
1.379003143343992e-09	1.472914e-08	-3.737810e-11	1.474582e-10	1.476652e-08
1.379003188633319e-09	1.524961e-08	-1.878497e-10	2.945428e-10	1.543746e-08
1.379003199955651e-09	1.561251e-08	-2.854090e-10	3.954847e-10	1.589792e-08
1.379003202786233e-09	1.571012e-08	-3.078675e-10	4.218054e-10	1.601798e-08
1.379003208447399e-09	1.590038e-08	-3.300737e-10	4.683824e-10	1.623045e-08
1.379003209862691e-09	7.344890e-10	3.910822e-09	-3.786056e-09	-3.176333e-09
1.379003210862691e-09	-1.047130e-08	7.037105e-09	-6.927993e-09	-1.750841e-08
1.379003212862691e-09	-6.077619e-09	5.808326e-09	-5.695406e-09	-1.188594e-08
1.379003216862691e-09	5.375583e-09	2.606106e-09	-2.482575e-09	2.769477e-09
1.379003224862691e-09	9.924154e-09	1.308527e-09	-1.200952e-09	8.615627e-09
1.379003240862691e-09	1.502996e-08	-1.239702e-10	2.324060e-10	1.515393e-08
1.379003272862691e-09	1.460745e-08	-5.253575e-12	1.137549e-10	1.461270e-08
1.379003280862691e-09	1.501974e-08	-1.206359e-10	2.294343e-10	1.514038e-08
1.379003296862691e-09	1.461157e-08	-4.646061e-12	1.145255e-10	1.461622e-08
1.379003328862691e-09	1.347692e-08	3.145635e-10	-2.041939e-10	1.316236e-08
1.379003392862691e-09	1.392034e-08	1.905738e-10	-7.979935e-11	1.372977e-08
1.379003520862691e-09	1.439840e-08	5.570211e-11	5.457106e-11	1.434270e-08
1.379003776862691e-09	1.438449e-08	5.920686e-11	5.075456e-11	1.432529e-08
1.379003840862691e-09	1.442928e-08	4.653256e-11	6.335031e-11	1.438275e-08
1.379003968862691e-09	1.447418e-08	3.402878e-11	7.593431e-11	1.444015e-08
1.379004224862691e-09	1.438462e-08	5.968026e-11	5.067681e-11	1.432494e-08
1.379004288862691e-09	1.390632e-08	1.911502e-10	-8.299893e-11	1.371517e-08
1.379004304862691e-09	1.354360e-08	2.924674e-10	-1.847262e-10	1.325113e-08
1.379004336862691e-09	1.141248e-09	3.764848e-09	-3.664848e-09	-2.623600e-09
1.379004337862691e-09	-3.324220e-09	5.019986e-09	-4.918943e-09	-8.344206e-09
1.379004339862691e-09	-1.233066e-08	7.563637e-09	-7.450999e-09	-1.989430e-08
1.379004343862691e-09	-9.057278e-09	6.663960e-09	-6.536151e-09	-1.572124e-08
1.379004351862691e-09	6.817428e-09	2.192916e-09	-2.075857e-09	4.624512e-09
1.379004367862691e-09	1.834658e-08	-1.055319e-09	1.163704e-09	1.940190e-08
1.379004399862691e-09	1.616377e-08	-4.393552e-10	5.501363e-10	1.660312e-08
1.379004463862691e-09	1.404309e-08	1.541238e-10	-4.487296e-11	1.388897e-08
1.379004591862691e-09	1.417049e-08	1.178329e-10	-8.985466e-12	1.405266e-08
1.379004847862691e-09	1.442820e-08	4.620659e-11	6.321436e-11	1.438199e-08
1.379005359862691e-09	1.432623e-08	7.483347e-11	3.458759e-11	1.425140e-08
1.379005487862691e-09	1.439654e-08	5.514167e-11	5.431690e-11	1.434139e-08
1.379005743862691e-09	1.451501e-08	2.201528e-11	8.754954e-11	1.449300e-08
1.379006255862691e-09	1.431683e-08	7.798118e-11	3.183024e-11	1.423885e-08
1.379006383862691e-09	1.426850e-08	9.171686e-11	1.822634e-11	1.417679e-08
1.379006639862691e-09	1.424250e-08	9.900880e-11	1.093222e-11	1.414349e-08
1.379007151862691e-09	1.424524e-08	9.776713e-11	1.181491e-11	1.414748e-08
1.379008175862691e-09	1.431286e-08	7.855316e-11	3.086196e-11	1.423431e-08
1.379010223862691e-09	1.440022e-08	5.392931e-11	5.541700e-11	1.434629e-08
1.379014319862691e-09	1.442260e-08	4.773959e-11	6.167634e-11	1.437486e-08
1.379022511862691e-09	1.441283e-08	5.069811e-11	5.887788e-11	1.436213e-08
1.379038895862691e-09	1.439948e-08	5.467804e-11	5.507258e-11	1.434480e-08
1.379039407862691e-09	1.439563e-08	5.576517e-11	5.399279e-11	1.433987e-08
1.379040431862691e-09	1.439620e-08	5.559908e-11	5.415386e-11	1.434060e-08
1.379042479862691e-09	1.428640e-08	8.628831e-11	2.335662e-11	1.420011e-08
1.379042543862691e-09	1.423185e-08	1.015383e-10	8.056774e-12	1.413032e-08
1.379042671862691e-09	1.415013e-08	1.244382e-10	-1.487462e-11	1.402570e-08
1.379042927862691e-09	1.420269e-08	1.098472e-10	-1.478143e-13	1.409284e-08
1.379043439862691e-09	1.425294e-08	9.566037e-11	1.398659e-11	1.415728e-08
1.379044463862691e-09	1.433678e-08	7.189804e-11	3.758556e-11	1.426488e-08
1.379046511862691e-09	1.441097e-08	5.095746e-11	5.844526e-11	1.436001e-08
1.379047023862691e-09	1.440333e-08	5.311485e-11	5.629823e-11	1.435022e-08
1.379048047862691e-09	1.439572e-08	5.529976e-11	5.415139e-11	1.434042e-08
1.379050095862691e-09	1.441420e-08	5.010037e-11	5.934311e-11	1.436410e-08
1.379054191862691e-09	1.442069e-08	4.837108e-11	6.113827e-11	1.437232e-08
1.379055215862691e-09	1.434196e-08	7.033130e-11	3.906374e-11	1.427163e-08
1.379055471862691e-09	1.430107e-08	8.170353e-11	2.760918e-11	1.421937e-08
1.379055983862691e-09	1.435015e-08	6.795275e-11	4.139172e-11	1.428220e-08
1.379056111862691e-09	1.436160e-08	6.439826e-11	4.468154e-11	1.429720e-08
1.379056143862691e-09	1.433207e-08	7.256951e-11	3.641746e-11	1.425950e-08
1.379056207862691e-09	1.431804e-08	7.673329e-11	3.242813e-11	1.424130e-08
1.379056335862691e-09	1.439125e-08	5.676437e-11	5.285730e-11	1.433449e-08
1.379056591862691e-09	1.432988e-08	7.398793e-11	3.562907e-11	1.425589e-08
1.379057103862691e-09	1.424415e-08	9.775913e-11	1.163187e-11	1.414639e-08
1.379058127862691e-09	1.431221e-08	7.843237e-11	3.080038e-11	1.423377e-08
1.379060175862691e-09	1.439982e-08	5.378897e-11	5.541579e-11	1.434603e-08
1.379064271862691e-09	1.442230e-08	4.756551e-11	6.170416e-11	1.437474e-08
1.379072463862691e-09	1.431282e-08	7.824230e-11	3.097245e-11	1.423458e-08
1.379072719862691e-09	1.435142e-08	6.755396e-11	4.177935e-11	1.428387e-08
1.379072783862691e-09	1.441262e-08	5.084200e-11	5.885958e-11	1.436178e-08
1.379072911862691e-09	1.450165e-08	2.660006e-11	8.368908e-11	1.447505e-08
1.379073167862691e-09	1.442591e-08	4.723599e-11	6.256042e-11	1.437867e-08
1.379073679862691e-09	1.424762e-08	9.683188e-11	1.260628e-11	1.415079e-08
1.379073807862692e-09	1.429861e-08	8.268408e-11	2.688815e-11	1.421593e-08
1.379074063862691e-09	1.444899e-08	4.052136e-11	6.909774e-11	1.440847e-08
1.379074575862692e-09	1.442840e-08	4.606537e-11	6.336712e-11	1.438233e-08
1.379075599862692e-09	1.430862e-08	7.957013e-11	2.976958e-11	1.422905e-08
1.379075855862691e-09	1.425329e-08	9.500756e-11	1.426076e-11	1.415829e-08
1.379076367862692e-09	1.419144e-08	1.121565e-10	-3.045298e-12	1.407929e-08
1.379077391862692e-09	1.430370e-08	8.047163e-11	2.852376e-11	1.422323e-08
1.379079439862691e-09	1.441348e-08	4.963674e-11	5.935557e-11	1.436385e-08
1.379083535862692e-09	1.442009e-08	4.792966e-11	6.117200e-11	1.437216e-08
1.379084559862692e-09	1.442853e-08	4.557599e-11	6.353533e-11	1.438296e-08
1.379086607862691e-09	1.444105e-08	4.215472e-11	6.702138e-11	1.439890e-08
1.379090703862692e-09	1.442281e-08	4.756995e-11	6.182241e-11	1.437524e-08
1.379091727862692e-09	1.442486e-08	4.704326e-11	6.238223e-11	1.437781e-08
1.379093775862691e-09	1.443135e-08	4.530598e-11	6.418013e-11	1.438604e-08
1.379097871862692e-09	1.442670e-08	4.682388e-11	6.281862e-11	1.437988e-08
1.379098895862692e-09	1.398222e-08	1.705596e-10	-6.175047e-11	1.381166e-08
1.379098927862692e-09	1.381323e-08	2.177467e-10	-1.091386e-10	1.359549e-08
1.379098991862692e-09	1.367137e-08	2.577698e-10	-1.490077e-10	1.341360e-08
1.379099119862692e-09	1.413170e-08	1.300018e-10	-2.007614e-11	1.400170e-08
1.379099375862692e-09	1.432862e-08	7.474643e-11	3.521147e-11	1.425388e-08
1.379099887862692e-09	1.425134e-08	9.565859e-11	1.369143e-11	1.415568e-08
1.379100911862692e-09	1.433593e-08	7.182432e-11	3.747101e-11	1.426410e-08
1.379102959862692e-09	1.441047e-08	5.092282e-11	5.839838e-11	1.435955e-08
1.379103471862692e-09	1.440283e-08	5.313172e-11	5.623983e-11	1.434970e-08
1.379104495862692e-09	1.439522e-08	5.537260e-11	5.408148e-11	1.433985e-08
1.379106543862692e-09	1.441582e-08	4.953638e-11	5.987632e-11	1.436629e-08
1.379110639862692e-09	1.442132e-08	4.803091e-11	6.140605e-11	1.437329e-08
1.379118831862692e-09	1.440960e-08	5.148326e-11	5.807368e-11	1.435812e-08
1.379135215862692e-09	1.440661e-08	5.245848e-11	5.720291e-11	1.435415e-08
1.379167983862692e-09	1.440677e-08	5.262013e-11	5.720092e-11	1.435415e-08
1.379233519862692e-09	1.440650e-08	5.301004e-11	5.705616e-11	1.435349e-08
1.379364591862692e-09	1.440758e-08	5.314327e-11	5.726122e-11	1.435444e-08
1.379626735862692e-09	1.440812e-08	5.345235e-11	5.729619e-11	1.435467e-08
1.380151023862692e-09	1.440856e-08	5.361755e-11	5.732730e-11	1.435494e-08
1.381199599862692e-09	1.439887e-08	5.655210e-11	5.451586e-11	1.434231e-08
1.381200111862692e-09	1.439556e-08	5.749534e-11	5.358556e-11	1.433807e-08
1.381201135862692e-09	1.439663e-08	5.717471e-11	5.389181e-11	1.433946e-08
1.381203183862692e-09	1.441194e-08	5.274980e-11	5.821795e-11	1.435919e-08
1.381203695862692e-09	1.441315e-08	5.259349e-11	5.851695e-11	1.436055e-08
1.381203823862692e-09	1.442159e-08	5.024425e-11	6.088389e-11	1.437135e-08
1.381204079862692e-09	1.446669e-08	3.775380e-11	7.350692e-11	1.442894e-08
1.381204143862692e-09	1.448582e-08	3.248335e-11	7.885676e-11	1.445334e-08
1.381204271862692e-09	1.449768e-08	2.916778e-11	8.218107e-11	1.446851e-08
1.381204527862692e-09	1.442386e-08	4.968115e-11	6.150118e-11	1.437418e-08
1.381205039862692e-09	1.431604e-08	7.974066e-11	3.127845e-11	1.423630e-08
1.381206063862692e-09	1.429942e-08	8.404211e-11	2.670424e-11	1.421538e-08
1.381206319862692e-09	1.391245e-08	1.927161e-10	-8.194673e-11	1.371974e-08
1.381206327862692e-09	1.473988e-09	3.671982e-09	-3.571498e-09	-2.197994e-09
1.381206329862692e-09	-6.702098e-09	5.966283e-09	-5.866857e-09	-1.266838e-08
1.381206333862692e-09	-1.106287e-08	7.200306e-09	-7.093362e-09	-1.826318e-08
1.381206341862692e-09	6.588538e-09	2.253578e-09	-2.139289e-09	4.334960e-09
1.381206357862692e-09	1.797813e-08	-9.489121e-10	1.059649e-09	1.892704e-08
1.381206389862692e-09	1.533546e-08	-2.080380e-10	3.178898e-10	1.554350e-08
1.381206453862692e-09	1.325034e-08	3.752634e-10	-2.670890e-10	1.287507e-08
1.381206469862692e-09	1.498373e-08	-9.947421e-11	2.169891e-10	1.508321e-08
1.381206473862692e-09	1.516975e-08	-1.257394e-10	2.635262e-10	1.529549e-08
1.381206474862691e-09	5.989626e-09	2.462955e-09	-2.316485e-09	3.526671e-09
1.381206476862692e-09	-1.712063e-08	8.957237e-09	-8.806515e-09	-2.607787e-08
1.381206480862692e-09	-1.775478e-08	9.114887e-09	-8.980082e-09	-2.686967e-08
1.381206488862691e-09	6.056847e-09	2.406634e-09	-2.289369e-09	3.650213e-09
1.381206504862691e-09	1.968756e-08	-1.428749e-09	1.539623e-09	2.111631e-08
1.381206508862691e-09	2.049196e-08	-1.655357e-09	1.765643e-09	2.214732e-08
1.381206516862691e-09	1.965361e-08	-1.421471e-09	1.530577e-09	2.107508e-08
1.381206532862691e-09	1.721695e-08	-7.429044e-10	8.476372e-10	1.795985e-08
1.381206536862691e-09	1.740595e-08	-7.964616e-10	9.008098e-10	1.820241e-08
1.381206544862691e-09	3.912544e-09	2.994434e-09	-2.888330e-09	9.181093e-10
1.381206546862691e-09	-3.288360e-09	5.011279e-09	-4.909081e-09	-8.299639e-09
1.381206550862691e-09	-4.972921e-09	5.474786e-09	-5.379980e-09	-1.044771e-08
1.381206558862691e-09	1.013194e-08	1.242159e-09	-1.140726e-09	8.889777e-09
1.381206574862691e-09	1.721549e-08	-7.385417e-10	8.463781e-10	1.795404e-08
1.381206578862691e-09	1.740275e-08	-7.933991e-10	8.994551e-10	1.819615e-08
1.381206586862691e-09	1.759018e-08	-8.481731e-10	9.525482e-10	1.843835e-08
1.381206602862691e-09	1.667394e-08	-5.885781e-10	6.947712e-10	1.726251e-08
1.381206634862691e-09	1.532599e-08	-2.072440e-10	3.156671e-10	1.553324e-08
1.381206698862691e-09	1.478012e-08	-5.318945e-11	1.622216e-10	1.483331e-08
1.381206826862691e-09	1.466861e-08	-2.062439e-11	1.306334e-10	1.468923e-08
1.381207082862691e-09	1.443729e-08	4.517364e-11	6.549459e-11	1.439211e-08
1.381207594862691e-09	1.437053e-08	6.361134e-11	4.681902e-11	1.430692e-08
1.381208618862691e-09	1.439208e-08	5.748024e-11	5.288918e-11	1.433460e-08
1.381210666862691e-09	1.439652e-08	5.631851e-11	5.411489e-11	1.434020e-08
